T22B4 1057:121 SEGGER J-Link V6.30h Log File (0000ms, 1082ms total)
T22B4 1057:121 DLL Compiled: Mar 16 2018 18:02:51 (0000ms, 1082ms total)
T22B4 1057:121 Logging started @ 2022-09-13 21:01 (0000ms, 1082ms total)
T22B4 1057:121 JLINK_SetWarnOutHandler(...) (0000ms, 1082ms total)
T22B4 1057:121 JLINK_OpenEx(...)
Firmware: J-Link ARM V8 compiled Nov 28 2014 13:44:46
Hardware: V8.00
S/N: 17935099
Feature(s): RDI,FlashDL,FlashBP,JFlash
TELNET listener socket opened on port 19021WEBSRV 
Starting webserver (0104ms, 1186ms total)
T22B4 1057:121 WEBSRV Webserver running on local port 19080 (0104ms, 1186ms total)
T22B4 1057:121   returns O.K. (0104ms, 1186ms total)
T22B4 1057:225 JLINK_GetEmuCaps()  returns 0xB9FF7BBF (0000ms, 1186ms total)
T22B4 1057:226 JLINK_TIF_GetAvailable(...) (0000ms, 1186ms total)
T22B4 1057:226 JLINK_SetErrorOutHandler(...) (0000ms, 1186ms total)
T22B4 1057:226 JLINK_ExecCommand("ProjectFile = "D:\ucos-ii\app\JLinkSettings.ini"", ...).   returns 0x00 (0001ms, 1187ms total)
T22B4 1057:227 JLINK_ExecCommand("Device = STM32F103ZE", ...). Device "STM32F103ZE" selected.  returns 0x00 (0001ms, 1188ms total)
T22B4 1057:228 JLINK_ExecCommand("DisableConnectionTimeout", ...).   returns 0x01 (0000ms, 1188ms total)
T22B4 1057:228 JLINK_GetHardwareVersion()  returns 0x13880 (0000ms, 1188ms total)
T22B4 1057:228 JLINK_GetDLLVersion()  returns 63008 (0000ms, 1188ms total)
T22B4 1057:229 JLINK_GetFirmwareString(...) (0000ms, 1188ms total)
T22B4 1057:229 JLINK_GetDLLVersion()  returns 63008 (0000ms, 1188ms total)
T22B4 1057:229 JLINK_GetCompileDateTime() (0000ms, 1188ms total)
T22B4 1057:229 JLINK_GetFirmwareString(...) (0000ms, 1188ms total)
T22B4 1057:229 JLINK_GetHardwareVersion()  returns 0x13880 (0000ms, 1188ms total)
T22B4 1057:229 JLINK_TIF_Select(JLINKARM_TIF_SWD)  returns 0x00 (0000ms, 1188ms total)
T22B4 1057:230 JLINK_SetSpeed(5000) (0000ms, 1189ms total)
T22B4 1057:230 JLINK_GetId() >0x10B TIF>Found SW-DP with ID 0x1BA01477 >0x0D TIF> >0x28 TIF> >0x0D TIF> >0x28 TIF> >0x0D TIF> >0x28 TIF> >0x0D TIF> >0x28 TIF> >0x0D TIF> >0x21 TIF> >0x0D TIF> >0x28 TIF> >0x0D TIF> >0x28 TIF> >0x0D TIF> >0x28 TIF> >0x0D TIF> >0x21 TIF> >0x0D TIF> >0x21 TIF> >0x0D TIF> >0x28 TIF> >0x0D TIF> >0x21 TIF> >0x0D TIF> >0x21 TIF> >0x0D TIF> >0x28 TIF> >0x0D TIF> >0x21 TIF> >0x0D TIF> >0x21 TIF> >0x0D TIF> >0x28 TIF> >0x0D TIF> >0x21 TIF> >0x0D TIF> >0x21 TIF> >0x0D TIF>
 >0x28 TIF> >0x0D TIF> >0x21 TIF> >0x0D TIF> >0x21 TIF> >0x0D TIF> >0x28 TIF> >0x0D TIF> >0x21 TIF> >0x0D TIF> >0x21 TIF> >0x0D TIF> >0x28 TIF> >0x0D TIF> >0x21 TIF> >0x0D TIF> >0x21 TIF> >0x10B TIF>Found SW-DP with ID 0x1BA01477 >0x0D TIF> >0x28 TIF> >0x0D TIF> >0x28 TIF> >0x0D TIF> >0x28 TIF> >0x0D TIF> >0x28 TIF> >0x0D TIF> >0x21 TIF> >0x0D TIF> >0x28 TIF>Scanning AP map to find all available APs >0x0D TIF> >0x28 TIF> >0x0D TIF> >0x21 TIF> >0x0D TIF> >0x21 TIF> >0x0D TIF> >0x28 TIF> >0x0D TIF>
 >0x21 TIF> >0x0D TIF> >0x21 TIF>AP[1]: Stopped AP scan as end of AP map has been reachedAP[0]: AHB-AP (IDR: 0x14770011)Iterating through AP map to find AHB-AP to use >0x42 TIF> >0x28 TIF> >0x0D TIF> >0x28 TIF> >0x0D TIF> >0x21 TIF> >0x0D TIF> >0x21 TIF> >0x42 TIF> >0x28 TIF> >0x0D TIF> >0x28 TIF> >0x0D TIF> >0x28 TIF> >0x0D TIF> >0x21 TIF> >0x0D TIF> >0x21 TIF>AP[0]: Core foundAP[0]: AHB-AP ROM base: 0xE00FF000 >0x0D TIF> >0x28 TIF> >0x0D TIF> >0x28 TIF> >0x0D TIF> >0x28 TIF> >0x0D TIF> >0x21 TIF>
 >0x0D TIF> >0x21 TIF>CPUID register: 0x411FC231. Implementer code: 0x41 (ARM)Found Cortex-M3 r1p1, Little endian. -- CPU_ReadMem(4 bytes @ 0xE000EDF0) -- CPU_WriteMem(4 bytes @ 0xE000EDF0) -- CPU_ReadMem(4 bytes @ 0xE0002000)FPUnit: 6 code (BP) slots and 2 literal slots -- CPU_ReadMem(4 bytes @ 0xE000EDFC) -- CPU_WriteMem(4 bytes @ 0xE000EDFC) -- CPU_ReadMem(4 bytes @ 0xE0001000) -- CPU_WriteMem(4 bytes @ 0xE0001000) -- CPU_ReadMem(4 bytes @ 0xE000ED88) -- CPU_WriteMem(4 bytes @ 0xE000ED88)
 -- CPU_ReadMem(4 bytes @ 0xE000ED88) -- CPU_WriteMem(4 bytes @ 0xE000ED88)CoreSight components:ROMTbl[0] @ E00FF000 -- CPU_ReadMem(16 bytes @ 0xE00FF000) -- CPU_ReadMem(16 bytes @ 0xE000EFF0) -- CPU_ReadMem(16 bytes @ 0xE000EFE0)ROMTbl[0][0]: E000E000, CID: B105E00D, PID: 001BB000 SCS -- CPU_ReadMem(16 bytes @ 0xE0001FF0) -- CPU_ReadMem(16 bytes @ 0xE0001FE0)ROMTbl[0][1]: E0001000, CID: B105E00D, PID: 001BB002 DWT -- CPU_ReadMem(16 bytes @ 0xE0002FF0) -- CPU_ReadMem(16 bytes @ 0xE0002FE0)
ROMTbl[0][2]: E0002000, CID: B105E00D, PID: 000BB003 FPB -- CPU_ReadMem(16 bytes @ 0xE0000FF0) -- CPU_ReadMem(16 bytes @ 0xE0000FE0)ROMTbl[0][3]: E0000000, CID: B105E00D, PID: 001BB001 ITM -- CPU_ReadMem(16 bytes @ 0xE00FF010) -- CPU_ReadMem(16 bytes @ 0xE0040FF0) -- CPU_ReadMem(16 bytes @ 0xE0040FE0)ROMTbl[0][4]: E0040000, CID: B105900D, PID: 001BB923 TPIU-Lite -- CPU_ReadMem(16 bytes @ 0xE0041FF0) -- CPU_ReadMem(16 bytes @ 0xE0041FE0)ROMTbl[0][5]: E0041000, CID: B105900D, PID: 101BB924 ETM-M3
 >0x0D TIF> >0x21 TIF>  returns 0x1BA01477 (0143ms, 1332ms total)
T22B4 1057:373 JLINK_GetDLLVersion()  returns 63008 (0000ms, 1332ms total)
T22B4 1057:373 JLINK_CORE_GetFound()  returns 0x30000FF (0000ms, 1332ms total)
T22B4 1057:373 JLINK_GetDebugInfo(0x100 = JLINKARM_ROM_TABLE_ADDR_INDEX) -- Value=0xE00FF000  returns 0x00 (0000ms, 1332ms total)
T22B4 1057:373 JLINK_GetDebugInfo(0x100 = JLINKARM_ROM_TABLE_ADDR_INDEX) -- Value=0xE00FF000  returns 0x00 (0000ms, 1332ms total)
T22B4 1057:373 JLINK_GetDebugInfo(0x101 = JLINKARM_DEBUG_INFO_ETM_ADDR_INDEX) -- Value=0xE0041000  returns 0x00 (0000ms, 1332ms total)
T22B4 1057:373 JLINK_ReadMemEx(0xE0041FD0, 0x0020 Bytes, ..., Flags = 0x02000004) -- CPU_ReadMem(32 bytes @ 0xE0041FD0) - Data: 04 00 00 00 00 00 00 00 00 00 00 00 00 00 00 00 ...  returns 0x20 (0002ms, 1334ms total)
T22B4 1057:375 JLINK_GetDebugInfo(0x102 = JLINKARM_DEBUG_INFO_MTB_ADDR_INDEX) -- Value=0x00000000  returns 0x00 (0000ms, 1334ms total)
T22B4 1057:375 JLINK_GetDebugInfo(0x103 = JLINKARM_DEBUG_INFO_TPIU_ADDR_INDEX) -- Value=0xE0040000  returns 0x00 (0000ms, 1334ms total)
T22B4 1057:375 JLINK_GetDebugInfo(0x104 = JLINKARM_DEBUG_INFO_ITM_ADDR_INDEX) -- Value=0xE0000000  returns 0x00 (0000ms, 1334ms total)
T22B4 1057:375 JLINK_GetDebugInfo(0x105 = JLINKARM_DEBUG_INFO_DWT_ADDR_INDEX) -- Value=0xE0001000  returns 0x00 (0000ms, 1334ms total)
T22B4 1057:375 JLINK_GetDebugInfo(0x106 = JLINKARM_DEBUG_INFO_FPB_ADDR_INDEX) -- Value=0xE0002000  returns 0x00 (0000ms, 1334ms total)
T22B4 1057:375 JLINK_GetDebugInfo(0x107 = JLINKARM_DEBUG_INFO_NVIC_ADDR_INDEX) -- Value=0xE000E000  returns 0x00 (0000ms, 1334ms total)
T22B4 1057:375 JLINK_GetDebugInfo(0x10C = JLINKARM_DEBUG_INFO_DBG_ADDR_INDEX) -- Value=0xE000EDF0  returns 0x00 (0000ms, 1334ms total)
T22B4 1057:375 JLINK_GetDebugInfo(0x01 = Unknown) -- Value=0x00000000  returns 0x00 (0000ms, 1334ms total)
T22B4 1057:375 JLINK_ReadMemU32(0xE000ED00, 0x0001 Items, ...) -- CPU_ReadMem(4 bytes @ 0xE000ED00) - Data: 31 C2 1F 41  returns 0x01 (0001ms, 1335ms total)
T22B4 1057:376 JLINK_GetDebugInfo(0x10F = JLINKARM_DEBUG_INFO_HAS_CORTEX_M_SECURITY_EXT_INDEX) -- Value=0x00000000  returns 0x00 (0000ms, 1335ms total)
T22B4 1057:376 JLINK_SetResetType(JLINKARM_CM3_RESET_TYPE_NORMAL)  returns JLINKARM_CM3_RESET_TYPE_NORMAL (0000ms, 1335ms total)
T22B4 1057:376 JLINK_Reset() -- CPU is running -- CPU_WriteMem(4 bytes @ 0xE000EDF0) -- CPU is running -- CPU_WriteMem(4 bytes @ 0xE000EDFC)Reset: Halt core after reset via DEMCR.VC_CORERESET. >0x35 TIF>Reset: Reset device via AIRCR.SYSRESETREQ. -- CPU is running -- CPU_WriteMem(4 bytes @ 0xE000ED0C) >0x0D TIF> >0x28 TIF> -- CPU_ReadMem(4 bytes @ 0xE000EDF0) -- CPU_ReadMem(4 bytes @ 0xE000EDF0) -- CPU is running -- CPU_WriteMem(4 bytes @ 0xE000EDF0) -- CPU is running -- CPU_WriteMem(4 bytes @ 0xE000EDFC)
 -- CPU_ReadMem(4 bytes @ 0xE000EDF0) -- CPU_WriteMem(4 bytes @ 0xE0002000) -- CPU_ReadMem(4 bytes @ 0xE000EDFC) -- CPU_ReadMem(4 bytes @ 0xE0001000) (0069ms, 1404ms total)
T22B4 1057:445 JLINK_ReadReg(R15 (PC))  returns 0x08000148 (0000ms, 1404ms total)
T22B4 1057:445 JLINK_ReadReg(XPSR)  returns 0x01000000 (0000ms, 1404ms total)
T22B4 1057:445 JLINK_Halt()  returns 0x00 (0000ms, 1404ms total)
T22B4 1057:445 JLINK_ReadMemU32(0xE000EDF0, 0x0001 Items, ...) -- CPU_ReadMem(4 bytes @ 0xE000EDF0) - Data: 03 00 03 00  returns 0x01 (0002ms, 1406ms total)
T22B4 1057:447 JLINK_WriteU32(0xE000EDF0, 0xA05F0003) -- CPU_WriteMem(4 bytes @ 0xE000EDF0)  returns 0x00 (0000ms, 1406ms total)
T22B4 1057:447 JLINK_WriteU32(0xE000EDFC, 0x01000000) -- CPU_WriteMem(4 bytes @ 0xE000EDFC)  returns 0x00 (0000ms, 1406ms total)
T22B4 1057:449 JLINK_GetHWStatus(...)  returns 0x00 (0000ms, 1406ms total)
T22B4 1057:449 JLINK_GetNumBPUnits(Type = 0xFFFFFF00)  returns 0x06 (0000ms, 1406ms total)
T22B4 1057:449 JLINK_GetNumBPUnits(Type = 0xF0)  returns 0x2000 (0000ms, 1406ms total)
T22B4 1057:449 JLINK_GetNumWPUnits()  returns 0x04 (0000ms, 1406ms total)
T22B4 1057:449 JLINK_GetSpeed()  returns 0xFA0 (0000ms, 1406ms total)
T22B4 1057:449 JLINK_ReadMemU32(0xE000E004, 0x0001 Items, ...) -- CPU_ReadMem(4 bytes @ 0xE000E004) - Data: 01 00 00 00  returns 0x01 (0001ms, 1407ms total)
T22B4 1057:450 JLINK_ReadMemU32(0xE000E004, 0x0001 Items, ...) -- CPU_ReadMem(4 bytes @ 0xE000E004) - Data: 01 00 00 00  returns 0x01 (0001ms, 1408ms total)
T22B4 1057:451 JLINK_WriteMemEx(0xE0001000, 0x001C Bytes, ..., Flags = 0x02000004) - Data: 01 00 00 00 00 00 00 00 00 00 00 00 00 00 00 00 ... -- CPU_WriteMem(28 bytes @ 0xE0001000)  returns 0x1C (0002ms, 1410ms total)
T22B4 1057:453 JLINK_ReadReg(R15 (PC))  returns 0x08000148 (0000ms, 1410ms total)
T22B4 1057:453 JLINK_ReadReg(XPSR)  returns 0x01000000 (0000ms, 1410ms total)
T22B4 1057:515 JLINK_ReadMemEx(0xE0001004, 0x0004 Bytes, ..., Flags = 0x02000000) - Data: 00 00 00 00  returns 0x04 (0001ms, 1411ms total)
T22B4 1057:599 JLINK_SetResetType(JLINKARM_CM3_RESET_TYPE_NORMAL)  returns JLINKARM_CM3_RESET_TYPE_NORMAL (0000ms, 1411ms total)
T22B4 1057:599 JLINK_Reset() -- CPU_WriteMem(4 bytes @ 0xE000EDF0) -- CPU_WriteMem(4 bytes @ 0xE000EDFC)Reset: Halt core after reset via DEMCR.VC_CORERESET. >0x35 TIF>Reset: Reset device via AIRCR.SYSRESETREQ. -- CPU_WriteMem(4 bytes @ 0xE000ED0C) >0x0D TIF> >0x28 TIF> -- CPU_ReadMem(4 bytes @ 0xE000EDF0) -- CPU_ReadMem(4 bytes @ 0xE000EDF0) -- CPU_WriteMem(4 bytes @ 0xE000EDF0) -- CPU_WriteMem(4 bytes @ 0xE000EDFC) -- CPU_ReadMem(4 bytes @ 0xE000EDF0) -- CPU_WriteMem(4 bytes @ 0xE0002000)
 -- CPU_ReadMem(4 bytes @ 0xE000EDFC) -- CPU_ReadMem(4 bytes @ 0xE0001000) (0068ms, 1479ms total)
T22B4 1057:667 JLINK_ReadReg(R15 (PC))  returns 0x08000148 (0000ms, 1479ms total)
T22B4 1057:667 JLINK_ReadReg(XPSR)  returns 0x01000000 (0000ms, 1479ms total)
T22B4 1057:678 JLINK_ReadMemEx(0x08000148, 0x003C Bytes, ..., Flags = 0x02000000) -- CPU_ReadMem(128 bytes @ 0x08000140) -- Updating C cache (128 bytes @ 0x08000140) -- Read from C cache (60 bytes @ 0x08000148) - Data: 06 48 80 47 06 48 00 47 FE E7 FE E7 FE E7 FE E7 ...  returns 0x3C (0047ms, 1526ms total)
T22B4 1060:162 JLINK_ReadReg(R0)  returns 0x00000000 (0000ms, 1526ms total)
T22B4 1060:162 JLINK_ReadReg(R1)  returns 0x20000038 (0000ms, 1526ms total)
T22B4 1060:162 JLINK_ReadReg(R2)  returns 0x02020202 (0000ms, 1526ms total)
T22B4 1060:162 JLINK_ReadReg(R3)  returns 0x03030303 (0000ms, 1526ms total)
T22B4 1060:162 JLINK_ReadReg(R4)  returns 0x00000000 (0000ms, 1526ms total)
T22B4 1060:162 JLINK_ReadReg(R5)  returns 0x05050505 (0000ms, 1526ms total)
T22B4 1060:162 JLINK_ReadReg(R6)  returns 0x06060606 (0000ms, 1526ms total)
T22B4 1060:162 JLINK_ReadReg(R7)  returns 0x07070707 (0000ms, 1526ms total)
T22B4 1060:162 JLINK_ReadReg(R8)  returns 0x08080808 (0000ms, 1526ms total)
T22B4 1060:162 JLINK_ReadReg(R9)  returns 0x09090909 (0000ms, 1526ms total)
T22B4 1060:162 JLINK_ReadReg(R10)  returns 0x10101010 (0000ms, 1526ms total)
T22B4 1060:162 JLINK_ReadReg(R11)  returns 0x11111111 (0000ms, 1526ms total)
T22B4 1060:162 JLINK_ReadReg(R12)  returns 0x12121212 (0000ms, 1526ms total)
T22B4 1060:162 JLINK_ReadReg(R13 (SP))  returns 0x20001B90 (0000ms, 1526ms total)
T22B4 1060:162 JLINK_ReadReg(R14)  returns 0xFFFFFFFF (0000ms, 1526ms total)
T22B4 1060:162 JLINK_ReadReg(R15 (PC))  returns 0x08000148 (0000ms, 1526ms total)
T22B4 1060:162 JLINK_ReadReg(XPSR)  returns 0x01000000 (0000ms, 1526ms total)
T22B4 1060:162 JLINK_ReadReg(MSP)  returns 0x20001B90 (0000ms, 1526ms total)
T22B4 1060:162 JLINK_ReadReg(PSP)  returns 0x20000B24 (0001ms, 1527ms total)
T22B4 1060:163 JLINK_ReadReg(CFBP)  returns 0x00000000 (0000ms, 1527ms total)
T16A8 1060:288 JLINK_ReadMemEx(0x08000148, 0x0002 Bytes, ..., Flags = 0x02000000) -- Read from C cache (2 bytes @ 0x08000148) - Data: 06 48  returns 0x02 (0000ms, 1527ms total)
T16A8 1060:288 JLINK_SetBPEx(Addr = 0x0800175C, Type = 0xFFFFFFF2)  returns 0x00000001 (0000ms, 1527ms total)
T16A8 1060:288 JLINK_SetBPEx(Addr = 0x08001464, Type = 0xFFFFFFF2)  returns 0x00000002 (0000ms, 1527ms total)
T16A8 1060:288 JLINK_SetBPEx(Addr = 0x0800145E, Type = 0xFFFFFFF2)  returns 0x00000003 (0000ms, 1527ms total)
T16A8 1060:288 JLINK_Go() -- CPU_WriteMem(4 bytes @ 0xE0002000) -- CPU_WriteMem(4 bytes @ 0xE0002000) -- CPU_WriteMem(4 bytes @ 0xE0002000) -- CPU_ReadMem(4 bytes @ 0xE0001000) -- CPU_WriteMem(4 bytes @ 0xE0002008) -- CPU_WriteMem(4 bytes @ 0xE000200C) -- CPU_WriteMem(4 bytes @ 0xE0002010) -- CPU_WriteMem(4 bytes @ 0xE0002014) -- CPU_WriteMem(4 bytes @ 0xE0002018) -- CPU_WriteMem(4 bytes @ 0xE000201C) -- CPU_WriteMem(4 bytes @ 0xE0001004) (0004ms, 1531ms total)
T16A8 1060:393 JLINK_IsHalted()  returns TRUE (0003ms, 1534ms total)
T16A8 1060:396 JLINK_Halt()  returns 0x00 (0000ms, 1531ms total)
T16A8 1060:396 JLINK_IsHalted()  returns TRUE (0000ms, 1531ms total)
T16A8 1060:396 JLINK_IsHalted()  returns TRUE (0000ms, 1531ms total)
T16A8 1060:396 JLINK_IsHalted()  returns TRUE (0000ms, 1531ms total)
T16A8 1060:396 JLINK_ReadReg(R15 (PC))  returns 0x0800175C (0000ms, 1531ms total)
T16A8 1060:396 JLINK_ReadReg(XPSR)  returns 0x61000000 (0000ms, 1531ms total)
T16A8 1060:396 JLINK_ClrBPEx(BPHandle = 0x00000001)  returns 0x00 (0000ms, 1531ms total)
T16A8 1060:396 JLINK_ClrBPEx(BPHandle = 0x00000002)  returns 0x00 (0000ms, 1531ms total)
T16A8 1060:396 JLINK_ClrBPEx(BPHandle = 0x00000003)  returns 0x00 (0000ms, 1531ms total)
T16A8 1060:396 JLINK_ReadMemU32(0xE000ED30, 0x0001 Items, ...) -- CPU_ReadMem(4 bytes @ 0xE000ED30) - Data: 03 00 00 00  returns 0x01 (0001ms, 1532ms total)
T16A8 1060:397 JLINK_ReadMemU32(0xE0001028, 0x0001 Items, ...) -- CPU_ReadMem(4 bytes @ 0xE0001028) - Data: 00 00 00 00  returns 0x01 (0001ms, 1533ms total)
T16A8 1060:398 JLINK_ReadMemU32(0xE0001038, 0x0001 Items, ...) -- CPU_ReadMem(4 bytes @ 0xE0001038) - Data: 00 02 00 00  returns 0x01 (0000ms, 1533ms total)
T16A8 1060:398 JLINK_ReadMemU32(0xE0001048, 0x0001 Items, ...) -- CPU_ReadMem(4 bytes @ 0xE0001048) - Data: 00 00 00 00  returns 0x01 (0001ms, 1534ms total)
T16A8 1060:399 JLINK_ReadMemU32(0xE0001058, 0x0001 Items, ...) -- CPU_ReadMem(4 bytes @ 0xE0001058) - Data: 00 00 00 00  returns 0x01 (0001ms, 1535ms total)
T16A8 1060:400 JLINK_ReadReg(R0)  returns 0x0800175D (0000ms, 1535ms total)
T16A8 1060:400 JLINK_ReadReg(R1)  returns 0x20001B90 (0000ms, 1535ms total)
T16A8 1060:400 JLINK_ReadReg(R2)  returns 0x00000000 (0000ms, 1535ms total)
T16A8 1060:400 JLINK_ReadReg(R3)  returns 0x08001709 (0000ms, 1535ms total)
T16A8 1060:400 JLINK_ReadReg(R4)  returns 0x08001904 (0000ms, 1535ms total)
T16A8 1060:400 JLINK_ReadReg(R5)  returns 0x08001904 (0000ms, 1535ms total)
T16A8 1060:400 JLINK_ReadReg(R6)  returns 0x06060606 (0000ms, 1535ms total)
T16A8 1060:400 JLINK_ReadReg(R7)  returns 0x07070707 (0000ms, 1535ms total)
T16A8 1060:400 JLINK_ReadReg(R8)  returns 0x08080808 (0000ms, 1535ms total)
T16A8 1060:400 JLINK_ReadReg(R9)  returns 0x09090909 (0000ms, 1535ms total)
T16A8 1060:400 JLINK_ReadReg(R10)  returns 0x10101010 (0001ms, 1536ms total)
T16A8 1060:401 JLINK_ReadReg(R11)  returns 0x11111111 (0000ms, 1536ms total)
T16A8 1060:401 JLINK_ReadReg(R12)  returns 0x12121212 (0000ms, 1536ms total)
T16A8 1060:401 JLINK_ReadReg(R13 (SP))  returns 0x20001B90 (0000ms, 1536ms total)
T16A8 1060:401 JLINK_ReadReg(R14)  returns 0x08000235 (0000ms, 1536ms total)
T16A8 1060:401 JLINK_ReadReg(R15 (PC))  returns 0x0800175C (0000ms, 1536ms total)
T16A8 1060:401 JLINK_ReadReg(XPSR)  returns 0x61000000 (0000ms, 1536ms total)
T16A8 1060:401 JLINK_ReadReg(MSP)  returns 0x20001B90 (0000ms, 1536ms total)
T16A8 1060:401 JLINK_ReadReg(PSP)  returns 0x20000B24 (0000ms, 1536ms total)
T16A8 1060:401 JLINK_ReadReg(CFBP)  returns 0x00000000 (0000ms, 1536ms total)
T22B4 1060:423 JLINK_ReadMemU32(0xE0001004, 0x0001 Items, ...) -- CPU_ReadMem(4 bytes @ 0xE0001004) - Data: 5B 4E 00 00  returns 0x01 (0001ms, 1537ms total)
T22B4 1060:430 JLINK_ReadMemEx(0x0800165C, 0x003C Bytes, ..., Flags = 0x02000000) -- CPU_ReadMem(128 bytes @ 0x08001640) -- Updating C cache (128 bytes @ 0x08001640) -- Read from C cache (60 bytes @ 0x0800165C) - Data: 8D F8 1A 00 18 20 8D F8 1B 00 06 A9 1D 48 FE F7 ...  returns 0x3C (0002ms, 1539ms total)
T22B4 1060:432 JLINK_ReadMemEx(0x08001698, 0x003C Bytes, ..., Flags = 0x02000000) -- CPU_ReadMem(64 bytes @ 0x080016C0) -- Updating C cache (64 bytes @ 0x080016C0) -- Read from C cache (60 bytes @ 0x08001698) - Data: 07 00 01 A8 FE F7 E8 FE 4F F4 E1 30 02 90 00 20 ...  returns 0x3C (0000ms, 1539ms total)
T22B4 1060:432 JLINK_ReadMemEx(0x080016D4, 0x003C Bytes, ..., Flags = 0x02000000) -- CPU_ReadMem(64 bytes @ 0x08001700) -- Updating C cache (64 bytes @ 0x08001700) -- Read from C cache (60 bytes @ 0x080016D4) - Data: 03 48 FF F7 05 FF 07 B0 00 BD 00 00 00 08 01 40 ...  returns 0x3C (0001ms, 1540ms total)
T22B4 1060:433 JLINK_ReadMemEx(0x08001710, 0x003C Bytes, ..., Flags = 0x02000000) -- CPU_ReadMem(64 bytes @ 0x08001740) -- Updating C cache (64 bytes @ 0x08001740) -- Read from C cache (60 bytes @ 0x08001710) - Data: 00 2A FB D1 70 47 2D E9 F0 41 16 46 0F 46 04 46 ...  returns 0x3C (0002ms, 1542ms total)
T22B4 1060:435 JLINK_ReadMemEx(0x0800174C, 0x003C Bytes, ..., Flags = 0x02000000) -- CPU_ReadMem(64 bytes @ 0x08001780) -- Updating C cache (64 bytes @ 0x08001780) -- Read from C cache (60 bytes @ 0x0800174C) - Data: FF F7 D6 FE 00 28 F9 D0 20 46 70 BD 00 38 01 40 ...  returns 0x3C (0001ms, 1543ms total)
T22B4 1086:469 JLINK_ReadMemEx(0x08001464, 0x003C Bytes, ..., Flags = 0x02000000) -- CPU_ReadMem(128 bytes @ 0x08001440) -- Updating C cache (128 bytes @ 0x08001440) -- Read from C cache (60 bytes @ 0x08001464) - Data: 06 48 00 78 40 1C 05 49 08 70 20 46 FE F7 84 FE ...  returns 0x3C (0002ms, 1545ms total)
T16A8 1136:024 JLINK_ReadMemEx(0x0800175C, 0x0002 Bytes, ..., Flags = 0x02000000) -- Read from C cache (2 bytes @ 0x0800175C) - Data: 10 B5  returns 0x02 (0000ms, 1545ms total)
T16A8 1136:024 JLINK_SetBPEx(Addr = 0x08001464, Type = 0xFFFFFFF2)  returns 0x00000004 (0000ms, 1545ms total)
T16A8 1136:024 JLINK_SetBPEx(Addr = 0x0800145E, Type = 0xFFFFFFF2)  returns 0x00000005 (0000ms, 1545ms total)
T16A8 1136:024 JLINK_Go() -- CPU_WriteMem(4 bytes @ 0xE0002000) -- CPU_WriteMem(4 bytes @ 0xE0002000) -- CPU_ReadMem(4 bytes @ 0xE0001000) -- CPU_WriteMem(4 bytes @ 0xE0002008) -- CPU_WriteMem(4 bytes @ 0xE000200C) -- CPU_WriteMem(4 bytes @ 0xE0002010) (0003ms, 1548ms total)
T16A8 1136:127 JLINK_IsHalted()  returns TRUE (0003ms, 1551ms total)
T16A8 1136:130 JLINK_Halt()  returns 0x00 (0000ms, 1548ms total)
T16A8 1136:130 JLINK_IsHalted()  returns TRUE (0000ms, 1548ms total)
T16A8 1136:130 JLINK_IsHalted()  returns TRUE (0000ms, 1548ms total)
T16A8 1136:130 JLINK_IsHalted()  returns TRUE (0000ms, 1548ms total)
T16A8 1136:130 JLINK_ReadReg(R15 (PC))  returns 0x0800145E (0000ms, 1548ms total)
T16A8 1136:130 JLINK_ReadReg(XPSR)  returns 0x0100000F (0000ms, 1548ms total)
T16A8 1136:130 JLINK_ClrBPEx(BPHandle = 0x00000004)  returns 0x00 (0000ms, 1548ms total)
T16A8 1136:130 JLINK_ClrBPEx(BPHandle = 0x00000005)  returns 0x00 (0000ms, 1548ms total)
T16A8 1136:130 JLINK_ReadMemU32(0xE000ED30, 0x0001 Items, ...) -- CPU_ReadMem(4 bytes @ 0xE000ED30) - Data: 03 00 00 00  returns 0x01 (0001ms, 1549ms total)
T16A8 1136:131 JLINK_ReadMemU32(0xE0001028, 0x0001 Items, ...) -- CPU_ReadMem(4 bytes @ 0xE0001028) - Data: 00 00 00 00  returns 0x01 (0001ms, 1550ms total)
T16A8 1136:132 JLINK_ReadMemU32(0xE0001038, 0x0001 Items, ...) -- CPU_ReadMem(4 bytes @ 0xE0001038) - Data: 00 02 00 00  returns 0x01 (0000ms, 1550ms total)
T16A8 1136:133 JLINK_ReadMemU32(0xE0001048, 0x0001 Items, ...) -- CPU_ReadMem(4 bytes @ 0xE0001048) - Data: 00 00 00 00  returns 0x01 (0000ms, 1550ms total)
T16A8 1136:133 JLINK_ReadMemU32(0xE0001058, 0x0001 Items, ...) -- CPU_ReadMem(4 bytes @ 0xE0001058) - Data: 00 00 00 00  returns 0x01 (0001ms, 1551ms total)
T16A8 1136:134 JLINK_ReadReg(R0)  returns 0x00000000 (0000ms, 1551ms total)
T16A8 1136:134 JLINK_ReadReg(R1)  returns 0x20000038 (0000ms, 1551ms total)
T16A8 1136:134 JLINK_ReadReg(R2)  returns 0x02020202 (0000ms, 1551ms total)
T16A8 1136:134 JLINK_ReadReg(R3)  returns 0x03030303 (0000ms, 1551ms total)
T16A8 1136:134 JLINK_ReadReg(R4)  returns 0x00000000 (0000ms, 1551ms total)
T16A8 1136:134 JLINK_ReadReg(R5)  returns 0x05050505 (0000ms, 1551ms total)
T16A8 1136:134 JLINK_ReadReg(R6)  returns 0x06060606 (0000ms, 1551ms total)
T16A8 1136:134 JLINK_ReadReg(R7)  returns 0x07070707 (0000ms, 1551ms total)
T16A8 1136:134 JLINK_ReadReg(R8)  returns 0x08080808 (0000ms, 1551ms total)
T16A8 1136:134 JLINK_ReadReg(R9)  returns 0x09090909 (0000ms, 1551ms total)
T16A8 1136:134 JLINK_ReadReg(R10)  returns 0x10101010 (0000ms, 1551ms total)
T16A8 1136:135 JLINK_ReadReg(R11)  returns 0x11111111 (0000ms, 1551ms total)
T16A8 1136:135 JLINK_ReadReg(R12)  returns 0x12121212 (0000ms, 1551ms total)
T16A8 1136:135 JLINK_ReadReg(R13 (SP))  returns 0x20001B58 (0000ms, 1551ms total)
T16A8 1136:135 JLINK_ReadReg(R14)  returns 0xFFFFFFFD (0000ms, 1551ms total)
T16A8 1136:135 JLINK_ReadReg(R15 (PC))  returns 0x0800145E (0000ms, 1551ms total)
T16A8 1136:135 JLINK_ReadReg(XPSR)  returns 0x0100000F (0000ms, 1551ms total)
T16A8 1136:135 JLINK_ReadReg(MSP)  returns 0x20001B58 (0000ms, 1551ms total)
T16A8 1136:135 JLINK_ReadReg(PSP)  returns 0x20000B04 (0000ms, 1551ms total)
T16A8 1136:135 JLINK_ReadReg(CFBP)  returns 0x00000000 (0000ms, 1551ms total)
T22B4 1136:135 JLINK_ReadMemEx(0x20001B5C, 0x0004 Bytes, ..., Flags = 0x02000000) -- CPU_ReadMem(64 bytes @ 0x20001B40) -- Updating C cache (64 bytes @ 0x20001B40) -- Read from C cache (4 bytes @ 0x20001B5C) - Data: FD FF FF FF  returns 0x04 (0002ms, 1553ms total)
T22B4 1136:137 JLINK_ReadMemEx(0x20000B1C, 0x0004 Bytes, ..., Flags = 0x02000000) -- CPU_ReadMem(64 bytes @ 0x20000B00) -- Updating C cache (64 bytes @ 0x20000B00) -- Read from C cache (4 bytes @ 0x20000B1C) - Data: 80 01 00 08  returns 0x04 (0001ms, 1554ms total)
T22B4 1136:138 JLINK_ReadMemEx(0x20000B20, 0x0004 Bytes, ..., Flags = 0x02000000) -- Read from C cache (4 bytes @ 0x20000B20) - Data: 00 00 00 01  returns 0x04 (0000ms, 1554ms total)
T22B4 1136:138 JLINK_ReadMemEx(0x20000B18, 0x0004 Bytes, ..., Flags = 0x02000000) -- Read from C cache (4 bytes @ 0x20000B18) - Data: 8B 11 00 08  returns 0x04 (0000ms, 1554ms total)
T22B4 1136:138 JLINK_ReadMemEx(0xE000ED28, 0x0004 Bytes, ..., Flags = 0x02000000) -- CPU_ReadMem(4 bytes @ 0xE000ED28) - Data: 00 00 00 00  returns 0x04 (0001ms, 1555ms total)
T22B4 1136:165 JLINK_ReadMemU32(0xE0001004, 0x0001 Items, ...) -- CPU_ReadMem(4 bytes @ 0xE0001004) - Data: E7 EF 0B 00  returns 0x01 (0001ms, 1556ms total)
T22B4 1136:183 JLINK_ReadMemEx(0x0800145C, 0x003C Bytes, ..., Flags = 0x02000000) -- CPU_ReadMem(128 bytes @ 0x08001440) -- Updating C cache (128 bytes @ 0x08001440) -- Read from C cache (60 bytes @ 0x0800145C) - Data: 10 B5 FE F7 89 FE 04 46 06 48 00 78 40 1C 05 49 ...  returns 0x3C (0002ms, 1558ms total)
T16A8 1143:057 JLINK_ReadMemEx(0x0800145E, 0x0002 Bytes, ..., Flags = 0x02000000) -- Read from C cache (2 bytes @ 0x0800145E) - Data: FE F7  returns 0x02 (0000ms, 1558ms total)
T16A8 1143:057 JLINK_Step() -- Read from C cache (2 bytes @ 0x0800145E) -- CPU_ReadMem(4 bytes @ 0xE000ED18) -- CPU_WriteMem(4 bytes @ 0xE000ED18) -- CPU_ReadMem(4 bytes @ 0xE000ED18) -- CPU_WriteMem(4 bytes @ 0xE000ED18) -- Read from C cache (2 bytes @ 0x08001460) -- Simulated  returns 0x00 (0002ms, 1560ms total)
T16A8 1143:059 JLINK_ReadReg(R15 (PC))  returns 0x08000174 (0000ms, 1560ms total)
T16A8 1143:059 JLINK_ReadReg(XPSR)  returns 0x0100000F (0000ms, 1560ms total)
T16A8 1143:059 JLINK_SetBPEx(Addr = 0x08001464, Type = 0xFFFFFFF2)  returns 0x00000006 (0000ms, 1560ms total)
T16A8 1143:059 JLINK_SetBPEx(Addr = 0x0800145E, Type = 0xFFFFFFF2)  returns 0x00000007 (0000ms, 1560ms total)
T16A8 1143:059 JLINK_Go() -- CPU_WriteMem(4 bytes @ 0xE0002000) -- CPU_WriteMem(4 bytes @ 0xE0002000) -- CPU_ReadMem(4 bytes @ 0xE0001000) -- CPU_WriteMem(4 bytes @ 0xE0001004) (0002ms, 1562ms total)
T16A8 1143:162 JLINK_IsHalted()  returns TRUE (0003ms, 1565ms total)
T16A8 1143:165 JLINK_Halt()  returns 0x00 (0000ms, 1562ms total)
T16A8 1143:165 JLINK_IsHalted()  returns TRUE (0000ms, 1562ms total)
T16A8 1143:165 JLINK_IsHalted()  returns TRUE (0000ms, 1562ms total)
T16A8 1143:165 JLINK_IsHalted()  returns TRUE (0000ms, 1562ms total)
T16A8 1143:165 JLINK_ReadReg(R15 (PC))  returns 0x08001464 (0000ms, 1562ms total)
T16A8 1143:165 JLINK_ReadReg(XPSR)  returns 0x0100000F (0000ms, 1562ms total)
T16A8 1143:165 JLINK_ClrBPEx(BPHandle = 0x00000006)  returns 0x00 (0000ms, 1562ms total)
T16A8 1143:165 JLINK_ClrBPEx(BPHandle = 0x00000007)  returns 0x00 (0000ms, 1562ms total)
T16A8 1143:165 JLINK_ReadMemU32(0xE000ED30, 0x0001 Items, ...) -- CPU_ReadMem(4 bytes @ 0xE000ED30) - Data: 03 00 00 00  returns 0x01 (0001ms, 1563ms total)
T16A8 1143:166 JLINK_ReadMemU32(0xE0001028, 0x0001 Items, ...) -- CPU_ReadMem(4 bytes @ 0xE0001028) - Data: 00 00 00 00  returns 0x01 (0001ms, 1564ms total)
T16A8 1143:167 JLINK_ReadMemU32(0xE0001038, 0x0001 Items, ...) -- CPU_ReadMem(4 bytes @ 0xE0001038) - Data: 00 02 00 00  returns 0x01 (0001ms, 1565ms total)
T16A8 1143:168 JLINK_ReadMemU32(0xE0001048, 0x0001 Items, ...) -- CPU_ReadMem(4 bytes @ 0xE0001048) - Data: 00 00 00 00  returns 0x01 (0001ms, 1566ms total)
T16A8 1143:169 JLINK_ReadMemU32(0xE0001058, 0x0001 Items, ...) -- CPU_ReadMem(4 bytes @ 0xE0001058) - Data: 00 00 00 00  returns 0x01 (0001ms, 1567ms total)
T16A8 1143:170 JLINK_ReadReg(R0)  returns 0x00000000 (0000ms, 1567ms total)
T16A8 1143:170 JLINK_ReadReg(R1)  returns 0x20000038 (0000ms, 1567ms total)
T16A8 1143:170 JLINK_ReadReg(R2)  returns 0x02020202 (0000ms, 1567ms total)
T16A8 1143:170 JLINK_ReadReg(R3)  returns 0x03030303 (0000ms, 1567ms total)
T16A8 1143:170 JLINK_ReadReg(R4)  returns 0x00000000 (0000ms, 1567ms total)
T16A8 1143:170 JLINK_ReadReg(R5)  returns 0x05050505 (0000ms, 1567ms total)
T16A8 1143:170 JLINK_ReadReg(R6)  returns 0x06060606 (0000ms, 1567ms total)
T16A8 1143:170 JLINK_ReadReg(R7)  returns 0x07070707 (0000ms, 1567ms total)
T16A8 1143:170 JLINK_ReadReg(R8)  returns 0x08080808 (0000ms, 1567ms total)
T16A8 1143:170 JLINK_ReadReg(R9)  returns 0x09090909 (0000ms, 1567ms total)
T16A8 1143:170 JLINK_ReadReg(R10)  returns 0x10101010 (0000ms, 1567ms total)
T16A8 1143:170 JLINK_ReadReg(R11)  returns 0x11111111 (0001ms, 1568ms total)
T16A8 1143:171 JLINK_ReadReg(R12)  returns 0x12121212 (0000ms, 1568ms total)
T16A8 1143:171 JLINK_ReadReg(R13 (SP))  returns 0x20001B58 (0000ms, 1568ms total)
T16A8 1143:171 JLINK_ReadReg(R14)  returns 0x08001463 (0000ms, 1568ms total)
T16A8 1143:171 JLINK_ReadReg(R15 (PC))  returns 0x08001464 (0000ms, 1568ms total)
T16A8 1143:171 JLINK_ReadReg(XPSR)  returns 0x0100000F (0000ms, 1568ms total)
T16A8 1143:171 JLINK_ReadReg(MSP)  returns 0x20001B58 (0000ms, 1568ms total)
T16A8 1143:171 JLINK_ReadReg(PSP)  returns 0x20000B04 (0000ms, 1568ms total)
T16A8 1143:171 JLINK_ReadReg(CFBP)  returns 0x00000001 (0000ms, 1568ms total)
T22B4 1143:172 JLINK_ReadMemEx(0x20001B5C, 0x0004 Bytes, ..., Flags = 0x02000000) -- CPU_ReadMem(64 bytes @ 0x20001B40) -- Updating C cache (64 bytes @ 0x20001B40) -- Read from C cache (4 bytes @ 0x20001B5C) - Data: FD FF FF FF  returns 0x04 (0001ms, 1569ms total)
T22B4 1143:173 JLINK_ReadMemEx(0x20000B1C, 0x0004 Bytes, ..., Flags = 0x02000000) -- CPU_ReadMem(64 bytes @ 0x20000B00) -- Updating C cache (64 bytes @ 0x20000B00) -- Read from C cache (4 bytes @ 0x20000B1C) - Data: 80 01 00 08  returns 0x04 (0001ms, 1570ms total)
T22B4 1143:174 JLINK_ReadMemEx(0x20000B20, 0x0004 Bytes, ..., Flags = 0x02000000) -- Read from C cache (4 bytes @ 0x20000B20) - Data: 00 00 00 01  returns 0x04 (0000ms, 1570ms total)
T22B4 1143:174 JLINK_ReadMemEx(0x20000B18, 0x0004 Bytes, ..., Flags = 0x02000000) -- Read from C cache (4 bytes @ 0x20000B18) - Data: 8B 11 00 08  returns 0x04 (0000ms, 1570ms total)
T22B4 1143:174 JLINK_ReadMemEx(0xE000ED28, 0x0004 Bytes, ..., Flags = 0x02000000) -- CPU_ReadMem(4 bytes @ 0xE000ED28) - Data: 00 00 00 00  returns 0x04 (0001ms, 1571ms total)
T22B4 1143:175 JLINK_ReadMemU32(0xE0001004, 0x0001 Items, ...) -- CPU_ReadMem(4 bytes @ 0xE0001004) - Data: F2 EF 0B 00  returns 0x01 (0001ms, 1572ms total)
T22B4 1143:197 JLINK_ReadMemEx(0x0800145C, 0x003C Bytes, ..., Flags = 0x02000000) -- CPU_ReadMem(128 bytes @ 0x08001440) -- Updating C cache (128 bytes @ 0x08001440) -- Read from C cache (60 bytes @ 0x0800145C) - Data: 10 B5 FE F7 89 FE 04 46 06 48 00 78 40 1C 05 49 ...  returns 0x3C (0002ms, 1574ms total)
T16A8 1144:914 JLINK_ReadMemEx(0x08001464, 0x0002 Bytes, ..., Flags = 0x02000000) -- Read from C cache (2 bytes @ 0x08001464) - Data: 06 48  returns 0x02 (0001ms, 1575ms total)
T16A8 1144:915 JLINK_Step() -- Read from C cache (2 bytes @ 0x08001464) -- Read from C cache (4 bytes @ 0x08001480) -- Simulated  returns 0x00 (0000ms, 1575ms total)
T16A8 1144:915 JLINK_ReadReg(R15 (PC))  returns 0x08001466 (0000ms, 1575ms total)
T16A8 1144:915 JLINK_ReadReg(XPSR)  returns 0x0100000F (0000ms, 1575ms total)
T16A8 1144:915 JLINK_SetBPEx(Addr = 0x08001464, Type = 0xFFFFFFF2)  returns 0x00000008 (0000ms, 1575ms total)
T16A8 1144:915 JLINK_SetBPEx(Addr = 0x0800145E, Type = 0xFFFFFFF2)  returns 0x00000009 (0000ms, 1575ms total)
T16A8 1144:915 JLINK_Go() -- CPU_WriteMem(4 bytes @ 0xE0002000) -- CPU_WriteMem(4 bytes @ 0xE0002000) -- CPU_ReadMem(4 bytes @ 0xE0001000) -- CPU_WriteMem(4 bytes @ 0xE0001004) (0003ms, 1578ms total)
T16A8 1145:018 JLINK_IsHalted()  returns TRUE (0003ms, 1581ms total)
T16A8 1145:021 JLINK_Halt()  returns 0x00 (0000ms, 1578ms total)
T16A8 1145:021 JLINK_IsHalted()  returns TRUE (0000ms, 1578ms total)
T16A8 1145:021 JLINK_IsHalted()  returns TRUE (0000ms, 1578ms total)
T16A8 1145:021 JLINK_IsHalted()  returns TRUE (0000ms, 1578ms total)
T16A8 1145:021 JLINK_ReadReg(R15 (PC))  returns 0x0800145E (0000ms, 1578ms total)
T16A8 1145:021 JLINK_ReadReg(XPSR)  returns 0x0100000F (0000ms, 1578ms total)
T16A8 1145:021 JLINK_ClrBPEx(BPHandle = 0x00000008)  returns 0x00 (0000ms, 1578ms total)
T16A8 1145:021 JLINK_ClrBPEx(BPHandle = 0x00000009)  returns 0x00 (0000ms, 1578ms total)
T16A8 1145:021 JLINK_ReadMemU32(0xE000ED30, 0x0001 Items, ...) -- CPU_ReadMem(4 bytes @ 0xE000ED30) - Data: 03 00 00 00  returns 0x01 (0001ms, 1579ms total)
T16A8 1145:022 JLINK_ReadMemU32(0xE0001028, 0x0001 Items, ...) -- CPU_ReadMem(4 bytes @ 0xE0001028) - Data: 00 00 00 00  returns 0x01 (0001ms, 1580ms total)
T16A8 1145:023 JLINK_ReadMemU32(0xE0001038, 0x0001 Items, ...) -- CPU_ReadMem(4 bytes @ 0xE0001038) - Data: 00 02 00 00  returns 0x01 (0001ms, 1581ms total)
T16A8 1145:024 JLINK_ReadMemU32(0xE0001048, 0x0001 Items, ...) -- CPU_ReadMem(4 bytes @ 0xE0001048) - Data: 00 00 00 00  returns 0x01 (0001ms, 1582ms total)
T16A8 1145:025 JLINK_ReadMemU32(0xE0001058, 0x0001 Items, ...) -- CPU_ReadMem(4 bytes @ 0xE0001058) - Data: 00 00 00 00  returns 0x01 (0000ms, 1582ms total)
T16A8 1145:026 JLINK_ReadReg(R0)  returns 0x00000000 (0000ms, 1583ms total)
T16A8 1145:026 JLINK_ReadReg(R1)  returns 0x20000038 (0000ms, 1583ms total)
T16A8 1145:026 JLINK_ReadReg(R2)  returns 0x02020202 (0000ms, 1583ms total)
T16A8 1145:026 JLINK_ReadReg(R3)  returns 0x03030303 (0000ms, 1583ms total)
T16A8 1145:026 JLINK_ReadReg(R4)  returns 0x00000000 (0000ms, 1583ms total)
T16A8 1145:026 JLINK_ReadReg(R5)  returns 0x05050505 (0000ms, 1583ms total)
T16A8 1145:026 JLINK_ReadReg(R6)  returns 0x06060606 (0000ms, 1583ms total)
T16A8 1145:026 JLINK_ReadReg(R7)  returns 0x07070707 (0000ms, 1583ms total)
T16A8 1145:026 JLINK_ReadReg(R8)  returns 0x08080808 (0000ms, 1583ms total)
T16A8 1145:026 JLINK_ReadReg(R9)  returns 0x09090909 (0000ms, 1583ms total)
T16A8 1145:026 JLINK_ReadReg(R10)  returns 0x10101010 (0000ms, 1583ms total)
T16A8 1145:027 JLINK_ReadReg(R11)  returns 0x11111111 (0000ms, 1583ms total)
T16A8 1145:027 JLINK_ReadReg(R12)  returns 0x12121212 (0000ms, 1583ms total)
T16A8 1145:027 JLINK_ReadReg(R13 (SP))  returns 0x20001B58 (0000ms, 1583ms total)
T16A8 1145:027 JLINK_ReadReg(R14)  returns 0xFFFFFFFD (0000ms, 1583ms total)
T16A8 1145:027 JLINK_ReadReg(R15 (PC))  returns 0x0800145E (0000ms, 1583ms total)
T16A8 1145:027 JLINK_ReadReg(XPSR)  returns 0x0100000F (0000ms, 1583ms total)
T16A8 1145:027 JLINK_ReadReg(MSP)  returns 0x20001B58 (0000ms, 1583ms total)
T16A8 1145:027 JLINK_ReadReg(PSP)  returns 0x20000B04 (0000ms, 1583ms total)
T16A8 1145:027 JLINK_ReadReg(CFBP)  returns 0x00000000 (0000ms, 1583ms total)
T22B4 1145:028 JLINK_ReadMemEx(0x20001B5C, 0x0004 Bytes, ..., Flags = 0x02000000) -- CPU_ReadMem(64 bytes @ 0x20001B40) -- Updating C cache (64 bytes @ 0x20001B40) -- Read from C cache (4 bytes @ 0x20001B5C) - Data: FD FF FF FF  returns 0x04 (0001ms, 1584ms total)
T22B4 1145:029 JLINK_ReadMemEx(0x20000B1C, 0x0004 Bytes, ..., Flags = 0x02000000) -- CPU_ReadMem(64 bytes @ 0x20000B00) -- Updating C cache (64 bytes @ 0x20000B00) -- Read from C cache (4 bytes @ 0x20000B1C) - Data: 8A 11 00 08  returns 0x04 (0001ms, 1585ms total)
T22B4 1145:030 JLINK_ReadMemEx(0x20000B20, 0x0004 Bytes, ..., Flags = 0x02000000) -- Read from C cache (4 bytes @ 0x20000B20) - Data: 00 00 00 01  returns 0x04 (0000ms, 1585ms total)
T22B4 1145:030 JLINK_ReadMemEx(0x20000B18, 0x0004 Bytes, ..., Flags = 0x02000000) -- Read from C cache (4 bytes @ 0x20000B18) - Data: 8B 11 00 08  returns 0x04 (0000ms, 1585ms total)
T22B4 1145:030 JLINK_ReadMemEx(0xE000ED28, 0x0004 Bytes, ..., Flags = 0x02000000) -- CPU_ReadMem(4 bytes @ 0xE000ED28) - Data: 00 00 00 00  returns 0x04 (0002ms, 1587ms total)
T22B4 1145:057 JLINK_ReadMemU32(0xE0001004, 0x0001 Items, ...) -- CPU_ReadMem(4 bytes @ 0xE0001004) - Data: 4C EC 16 00  returns 0x01 (0000ms, 1587ms total)
T22B4 1145:078 JLINK_ReadMemEx(0x0800145C, 0x003C Bytes, ..., Flags = 0x02000000) -- CPU_ReadMem(128 bytes @ 0x08001440) -- Updating C cache (128 bytes @ 0x08001440) -- Read from C cache (60 bytes @ 0x0800145C) - Data: 10 B5 FE F7 89 FE 04 46 06 48 00 78 40 1C 05 49 ...  returns 0x3C (0002ms, 1589ms total)
T16A8 1145:922 JLINK_ReadMemEx(0x0800145E, 0x0002 Bytes, ..., Flags = 0x02000000) -- Read from C cache (2 bytes @ 0x0800145E) - Data: FE F7  returns 0x02 (0000ms, 1589ms total)
T16A8 1145:922 JLINK_Step() -- Read from C cache (2 bytes @ 0x0800145E) -- Read from C cache (2 bytes @ 0x08001460) -- Simulated  returns 0x00 (0000ms, 1589ms total)
T16A8 1145:922 JLINK_ReadReg(R15 (PC))  returns 0x08000174 (0000ms, 1589ms total)
T16A8 1145:922 JLINK_ReadReg(XPSR)  returns 0x0100000F (0000ms, 1589ms total)
T16A8 1145:922 JLINK_SetBPEx(Addr = 0x08001464, Type = 0xFFFFFFF2)  returns 0x0000000A (0000ms, 1589ms total)
T16A8 1145:922 JLINK_SetBPEx(Addr = 0x0800145E, Type = 0xFFFFFFF2)  returns 0x0000000B (0000ms, 1589ms total)
T16A8 1145:922 JLINK_Go() -- CPU_WriteMem(4 bytes @ 0xE0002000) -- CPU_WriteMem(4 bytes @ 0xE0002000) -- CPU_ReadMem(4 bytes @ 0xE0001000) -- CPU_WriteMem(4 bytes @ 0xE0001004) (0003ms, 1592ms total)
T16A8 1146:026 JLINK_IsHalted()  returns TRUE (0002ms, 1594ms total)
T16A8 1146:028 JLINK_Halt()  returns 0x00 (0000ms, 1592ms total)
T16A8 1146:028 JLINK_IsHalted()  returns TRUE (0000ms, 1592ms total)
T16A8 1146:028 JLINK_IsHalted()  returns TRUE (0000ms, 1592ms total)
T16A8 1146:028 JLINK_IsHalted()  returns TRUE (0000ms, 1592ms total)
T16A8 1146:028 JLINK_ReadReg(R15 (PC))  returns 0x08001464 (0000ms, 1592ms total)
T16A8 1146:028 JLINK_ReadReg(XPSR)  returns 0x0100000F (0000ms, 1592ms total)
T16A8 1146:028 JLINK_ClrBPEx(BPHandle = 0x0000000A)  returns 0x00 (0000ms, 1592ms total)
T16A8 1146:028 JLINK_ClrBPEx(BPHandle = 0x0000000B)  returns 0x00 (0000ms, 1592ms total)
T16A8 1146:028 JLINK_ReadMemU32(0xE000ED30, 0x0001 Items, ...) -- CPU_ReadMem(4 bytes @ 0xE000ED30) - Data: 03 00 00 00  returns 0x01 (0001ms, 1593ms total)
T16A8 1146:029 JLINK_ReadMemU32(0xE0001028, 0x0001 Items, ...) -- CPU_ReadMem(4 bytes @ 0xE0001028) - Data: 00 00 00 00  returns 0x01 (0001ms, 1594ms total)
T16A8 1146:030 JLINK_ReadMemU32(0xE0001038, 0x0001 Items, ...) -- CPU_ReadMem(4 bytes @ 0xE0001038) - Data: 00 02 00 00  returns 0x01 (0000ms, 1594ms total)
T16A8 1146:030 JLINK_ReadMemU32(0xE0001048, 0x0001 Items, ...) -- CPU_ReadMem(4 bytes @ 0xE0001048) - Data: 00 00 00 00  returns 0x01 (0001ms, 1595ms total)
T16A8 1146:031 JLINK_ReadMemU32(0xE0001058, 0x0001 Items, ...) -- CPU_ReadMem(4 bytes @ 0xE0001058) - Data: 00 00 00 00  returns 0x01 (0001ms, 1596ms total)
T16A8 1146:032 JLINK_ReadReg(R0)  returns 0x00000000 (0000ms, 1596ms total)
T16A8 1146:032 JLINK_ReadReg(R1)  returns 0x20000038 (0000ms, 1596ms total)
T16A8 1146:032 JLINK_ReadReg(R2)  returns 0x02020202 (0000ms, 1596ms total)
T16A8 1146:032 JLINK_ReadReg(R3)  returns 0x03030303 (0000ms, 1596ms total)
T16A8 1146:032 JLINK_ReadReg(R4)  returns 0x00000000 (0000ms, 1596ms total)
T16A8 1146:032 JLINK_ReadReg(R5)  returns 0x05050505 (0000ms, 1596ms total)
T16A8 1146:032 JLINK_ReadReg(R6)  returns 0x06060606 (0000ms, 1596ms total)
T16A8 1146:032 JLINK_ReadReg(R7)  returns 0x07070707 (0000ms, 1596ms total)
T16A8 1146:032 JLINK_ReadReg(R8)  returns 0x08080808 (0000ms, 1596ms total)
T16A8 1146:032 JLINK_ReadReg(R9)  returns 0x09090909 (0000ms, 1596ms total)
T16A8 1146:032 JLINK_ReadReg(R10)  returns 0x10101010 (0000ms, 1596ms total)
T16A8 1146:032 JLINK_ReadReg(R11)  returns 0x11111111 (0000ms, 1596ms total)
T16A8 1146:032 JLINK_ReadReg(R12)  returns 0x12121212 (0000ms, 1596ms total)
T16A8 1146:032 JLINK_ReadReg(R13 (SP))  returns 0x20001B58 (0001ms, 1597ms total)
T16A8 1146:033 JLINK_ReadReg(R14)  returns 0x08001463 (0000ms, 1597ms total)
T16A8 1146:033 JLINK_ReadReg(R15 (PC))  returns 0x08001464 (0000ms, 1597ms total)
T16A8 1146:033 JLINK_ReadReg(XPSR)  returns 0x0100000F (0000ms, 1597ms total)
T16A8 1146:033 JLINK_ReadReg(MSP)  returns 0x20001B58 (0000ms, 1597ms total)
T16A8 1146:033 JLINK_ReadReg(PSP)  returns 0x20000B04 (0000ms, 1597ms total)
T16A8 1146:033 JLINK_ReadReg(CFBP)  returns 0x00000001 (0000ms, 1597ms total)
T22B4 1146:034 JLINK_ReadMemEx(0x20001B5C, 0x0004 Bytes, ..., Flags = 0x02000000) -- CPU_ReadMem(64 bytes @ 0x20001B40) -- Updating C cache (64 bytes @ 0x20001B40) -- Read from C cache (4 bytes @ 0x20001B5C) - Data: FD FF FF FF  returns 0x04 (0001ms, 1598ms total)
T22B4 1146:035 JLINK_ReadMemEx(0x20000B1C, 0x0004 Bytes, ..., Flags = 0x02000000) -- CPU_ReadMem(64 bytes @ 0x20000B00) -- Updating C cache (64 bytes @ 0x20000B00) -- Read from C cache (4 bytes @ 0x20000B1C) - Data: 8A 11 00 08  returns 0x04 (0002ms, 1600ms total)
T22B4 1146:037 JLINK_ReadMemEx(0x20000B20, 0x0004 Bytes, ..., Flags = 0x02000000) -- Read from C cache (4 bytes @ 0x20000B20) - Data: 00 00 00 01  returns 0x04 (0000ms, 1600ms total)
T22B4 1146:037 JLINK_ReadMemEx(0x20000B18, 0x0004 Bytes, ..., Flags = 0x02000000) -- Read from C cache (4 bytes @ 0x20000B18) - Data: 8B 11 00 08  returns 0x04 (0000ms, 1600ms total)
T22B4 1146:037 JLINK_ReadMemEx(0xE000ED28, 0x0004 Bytes, ..., Flags = 0x02000000) -- CPU_ReadMem(4 bytes @ 0xE000ED28) - Data: 00 00 00 00  returns 0x04 (0001ms, 1601ms total)
T22B4 1146:038 JLINK_ReadMemU32(0xE0001004, 0x0001 Items, ...) -- CPU_ReadMem(4 bytes @ 0xE0001004) - Data: 57 EC 16 00  returns 0x01 (0001ms, 1602ms total)
T22B4 1146:057 JLINK_ReadMemEx(0x0800145C, 0x003C Bytes, ..., Flags = 0x02000000) -- CPU_ReadMem(128 bytes @ 0x08001440) -- Updating C cache (128 bytes @ 0x08001440) -- Read from C cache (60 bytes @ 0x0800145C) - Data: 10 B5 FE F7 89 FE 04 46 06 48 00 78 40 1C 05 49 ...  returns 0x3C (0002ms, 1604ms total)
T16A8 1147:006 JLINK_ReadMemEx(0x08001464, 0x0002 Bytes, ..., Flags = 0x02000000) -- Read from C cache (2 bytes @ 0x08001464) - Data: 06 48  returns 0x02 (0000ms, 1604ms total)
T16A8 1147:007 JLINK_Step() -- Read from C cache (2 bytes @ 0x08001464) -- Read from C cache (4 bytes @ 0x08001480) -- Simulated  returns 0x00 (0000ms, 1604ms total)
T16A8 1147:007 JLINK_ReadReg(R15 (PC))  returns 0x08001466 (0000ms, 1604ms total)
T16A8 1147:007 JLINK_ReadReg(XPSR)  returns 0x0100000F (0000ms, 1604ms total)
T16A8 1147:007 JLINK_SetBPEx(Addr = 0x08001464, Type = 0xFFFFFFF2)  returns 0x0000000C (0000ms, 1604ms total)
T16A8 1147:007 JLINK_SetBPEx(Addr = 0x0800145E, Type = 0xFFFFFFF2)  returns 0x0000000D (0000ms, 1604ms total)
T16A8 1147:007 JLINK_Go() -- CPU_WriteMem(4 bytes @ 0xE0002000) -- CPU_WriteMem(4 bytes @ 0xE0002000) -- CPU_ReadMem(4 bytes @ 0xE0001000) -- CPU_WriteMem(4 bytes @ 0xE0001004) (0003ms, 1607ms total)
T16A8 1147:110 JLINK_IsHalted()  returns TRUE (0003ms, 1610ms total)
T16A8 1147:113 JLINK_Halt()  returns 0x00 (0000ms, 1607ms total)
T16A8 1147:113 JLINK_IsHalted()  returns TRUE (0000ms, 1607ms total)
T16A8 1147:113 JLINK_IsHalted()  returns TRUE (0000ms, 1607ms total)
T16A8 1147:113 JLINK_IsHalted()  returns TRUE (0000ms, 1607ms total)
T16A8 1147:113 JLINK_ReadReg(R15 (PC))  returns 0x0800145E (0000ms, 1607ms total)
T16A8 1147:113 JLINK_ReadReg(XPSR)  returns 0x0100000F (0000ms, 1607ms total)
T16A8 1147:113 JLINK_ClrBPEx(BPHandle = 0x0000000C)  returns 0x00 (0000ms, 1607ms total)
T16A8 1147:113 JLINK_ClrBPEx(BPHandle = 0x0000000D)  returns 0x00 (0000ms, 1607ms total)
T16A8 1147:113 JLINK_ReadMemU32(0xE000ED30, 0x0001 Items, ...) -- CPU_ReadMem(4 bytes @ 0xE000ED30) - Data: 03 00 00 00  returns 0x01 (0001ms, 1608ms total)
T16A8 1147:114 JLINK_ReadMemU32(0xE0001028, 0x0001 Items, ...) -- CPU_ReadMem(4 bytes @ 0xE0001028) - Data: 00 00 00 00  returns 0x01 (0001ms, 1609ms total)
T16A8 1147:115 JLINK_ReadMemU32(0xE0001038, 0x0001 Items, ...) -- CPU_ReadMem(4 bytes @ 0xE0001038) - Data: 00 02 00 00  returns 0x01 (0001ms, 1610ms total)
T16A8 1147:116 JLINK_ReadMemU32(0xE0001048, 0x0001 Items, ...) -- CPU_ReadMem(4 bytes @ 0xE0001048) - Data: 00 00 00 00  returns 0x01 (0001ms, 1611ms total)
T16A8 1147:117 JLINK_ReadMemU32(0xE0001058, 0x0001 Items, ...) -- CPU_ReadMem(4 bytes @ 0xE0001058) - Data: 00 00 00 00  returns 0x01 (0001ms, 1612ms total)
T16A8 1147:118 JLINK_ReadReg(R0)  returns 0x00000000 (0000ms, 1612ms total)
T16A8 1147:118 JLINK_ReadReg(R1)  returns 0x20000038 (0000ms, 1612ms total)
T16A8 1147:118 JLINK_ReadReg(R2)  returns 0x02020202 (0000ms, 1612ms total)
T16A8 1147:118 JLINK_ReadReg(R3)  returns 0x03030303 (0000ms, 1612ms total)
T16A8 1147:118 JLINK_ReadReg(R4)  returns 0x00000000 (0000ms, 1612ms total)
T16A8 1147:118 JLINK_ReadReg(R5)  returns 0x05050505 (0000ms, 1612ms total)
T16A8 1147:118 JLINK_ReadReg(R6)  returns 0x06060606 (0000ms, 1612ms total)
T16A8 1147:118 JLINK_ReadReg(R7)  returns 0x07070707 (0000ms, 1612ms total)
T16A8 1147:118 JLINK_ReadReg(R8)  returns 0x08080808 (0000ms, 1612ms total)
T16A8 1147:118 JLINK_ReadReg(R9)  returns 0x09090909 (0000ms, 1612ms total)
T16A8 1147:118 JLINK_ReadReg(R10)  returns 0x10101010 (0000ms, 1612ms total)
T16A8 1147:118 JLINK_ReadReg(R11)  returns 0x11111111 (0000ms, 1612ms total)
T16A8 1147:118 JLINK_ReadReg(R12)  returns 0x12121212 (0000ms, 1612ms total)
T16A8 1147:118 JLINK_ReadReg(R13 (SP))  returns 0x20001B58 (0001ms, 1613ms total)
T16A8 1147:119 JLINK_ReadReg(R14)  returns 0xFFFFFFFD (0000ms, 1613ms total)
T16A8 1147:119 JLINK_ReadReg(R15 (PC))  returns 0x0800145E (0000ms, 1613ms total)
T16A8 1147:119 JLINK_ReadReg(XPSR)  returns 0x0100000F (0000ms, 1613ms total)
T16A8 1147:119 JLINK_ReadReg(MSP)  returns 0x20001B58 (0000ms, 1613ms total)
T16A8 1147:119 JLINK_ReadReg(PSP)  returns 0x20000B04 (0000ms, 1613ms total)
T16A8 1147:119 JLINK_ReadReg(CFBP)  returns 0x00000000 (0000ms, 1613ms total)
T22B4 1147:119 JLINK_ReadMemEx(0x20001B5C, 0x0004 Bytes, ..., Flags = 0x02000000) -- CPU_ReadMem(64 bytes @ 0x20001B40) -- Updating C cache (64 bytes @ 0x20001B40) -- Read from C cache (4 bytes @ 0x20001B5C) - Data: FD FF FF FF  returns 0x04 (0002ms, 1615ms total)
T22B4 1147:121 JLINK_ReadMemEx(0x20000B1C, 0x0004 Bytes, ..., Flags = 0x02000000) -- CPU_ReadMem(64 bytes @ 0x20000B00) -- Updating C cache (64 bytes @ 0x20000B00) -- Read from C cache (4 bytes @ 0x20000B1C) - Data: 80 01 00 08  returns 0x04 (0001ms, 1616ms total)
T22B4 1147:122 JLINK_ReadMemEx(0x20000B20, 0x0004 Bytes, ..., Flags = 0x02000000) -- Read from C cache (4 bytes @ 0x20000B20) - Data: 00 00 00 01  returns 0x04 (0000ms, 1616ms total)
T22B4 1147:122 JLINK_ReadMemEx(0x20000B18, 0x0004 Bytes, ..., Flags = 0x02000000) -- Read from C cache (4 bytes @ 0x20000B18) - Data: 8B 11 00 08  returns 0x04 (0000ms, 1616ms total)
T22B4 1147:122 JLINK_ReadMemEx(0xE000ED28, 0x0004 Bytes, ..., Flags = 0x02000000) -- CPU_ReadMem(4 bytes @ 0xE000ED28) - Data: 00 00 00 00  returns 0x04 (0001ms, 1617ms total)
T22B4 1147:128 JLINK_ReadMemU32(0xE0001004, 0x0001 Items, ...) -- CPU_ReadMem(4 bytes @ 0xE0001004) - Data: C1 E8 21 00  returns 0x01 (0001ms, 1618ms total)
T22B4 1147:141 JLINK_ReadMemEx(0x0800145C, 0x003C Bytes, ..., Flags = 0x02000000) -- CPU_ReadMem(128 bytes @ 0x08001440) -- Updating C cache (128 bytes @ 0x08001440) -- Read from C cache (60 bytes @ 0x0800145C) - Data: 10 B5 FE F7 89 FE 04 46 06 48 00 78 40 1C 05 49 ...  returns 0x3C (0001ms, 1619ms total)
T16A8 1147:883 JLINK_ReadMemEx(0x0800145E, 0x0002 Bytes, ..., Flags = 0x02000000) -- Read from C cache (2 bytes @ 0x0800145E) - Data: FE F7  returns 0x02 (0000ms, 1619ms total)
T16A8 1147:883 JLINK_Step() -- Read from C cache (2 bytes @ 0x0800145E) -- Read from C cache (2 bytes @ 0x08001460) -- Simulated  returns 0x00 (0001ms, 1620ms total)
T16A8 1147:884 JLINK_ReadReg(R15 (PC))  returns 0x08000174 (0000ms, 1620ms total)
T16A8 1147:884 JLINK_ReadReg(XPSR)  returns 0x0100000F (0000ms, 1620ms total)
T16A8 1147:884 JLINK_SetBPEx(Addr = 0x08001464, Type = 0xFFFFFFF2)  returns 0x0000000E (0000ms, 1620ms total)
T16A8 1147:884 JLINK_SetBPEx(Addr = 0x0800145E, Type = 0xFFFFFFF2)  returns 0x0000000F (0000ms, 1620ms total)
T16A8 1147:884 JLINK_Go() -- CPU_WriteMem(4 bytes @ 0xE0002000) -- CPU_WriteMem(4 bytes @ 0xE0002000) -- CPU_ReadMem(4 bytes @ 0xE0001000) -- CPU_WriteMem(4 bytes @ 0xE0001004) (0003ms, 1623ms total)
T16A8 1147:987 JLINK_IsHalted()  returns TRUE (0003ms, 1626ms total)
T16A8 1147:990 JLINK_Halt()  returns 0x00 (0000ms, 1623ms total)
T16A8 1147:990 JLINK_IsHalted()  returns TRUE (0000ms, 1623ms total)
T16A8 1147:990 JLINK_IsHalted()  returns TRUE (0000ms, 1623ms total)
T16A8 1147:990 JLINK_IsHalted()  returns TRUE (0000ms, 1623ms total)
T16A8 1147:990 JLINK_ReadReg(R15 (PC))  returns 0x08001464 (0000ms, 1623ms total)
T16A8 1147:990 JLINK_ReadReg(XPSR)  returns 0x0100000F (0000ms, 1623ms total)
T16A8 1147:990 JLINK_ClrBPEx(BPHandle = 0x0000000E)  returns 0x00 (0000ms, 1623ms total)
T16A8 1147:990 JLINK_ClrBPEx(BPHandle = 0x0000000F)  returns 0x00 (0000ms, 1623ms total)
T16A8 1147:990 JLINK_ReadMemU32(0xE000ED30, 0x0001 Items, ...) -- CPU_ReadMem(4 bytes @ 0xE000ED30) - Data: 03 00 00 00  returns 0x01 (0001ms, 1624ms total)
T16A8 1147:991 JLINK_ReadMemU32(0xE0001028, 0x0001 Items, ...) -- CPU_ReadMem(4 bytes @ 0xE0001028) - Data: 00 00 00 00  returns 0x01 (0001ms, 1625ms total)
T16A8 1147:992 JLINK_ReadMemU32(0xE0001038, 0x0001 Items, ...) -- CPU_ReadMem(4 bytes @ 0xE0001038) - Data: 00 02 00 00  returns 0x01 (0001ms, 1626ms total)
T16A8 1147:993 JLINK_ReadMemU32(0xE0001048, 0x0001 Items, ...) -- CPU_ReadMem(4 bytes @ 0xE0001048) - Data: 00 00 00 00  returns 0x01 (0001ms, 1627ms total)
T16A8 1147:994 JLINK_ReadMemU32(0xE0001058, 0x0001 Items, ...) -- CPU_ReadMem(4 bytes @ 0xE0001058) - Data: 00 00 00 00  returns 0x01 (0001ms, 1628ms total)
T16A8 1147:995 JLINK_ReadReg(R0)  returns 0x00000000 (0000ms, 1628ms total)
T16A8 1147:995 JLINK_ReadReg(R1)  returns 0x20000038 (0000ms, 1628ms total)
T16A8 1147:995 JLINK_ReadReg(R2)  returns 0x02020202 (0000ms, 1628ms total)
T16A8 1147:995 JLINK_ReadReg(R3)  returns 0x03030303 (0000ms, 1628ms total)
T16A8 1147:995 JLINK_ReadReg(R4)  returns 0x00000000 (0000ms, 1628ms total)
T16A8 1147:995 JLINK_ReadReg(R5)  returns 0x05050505 (0000ms, 1628ms total)
T16A8 1147:995 JLINK_ReadReg(R6)  returns 0x06060606 (0000ms, 1628ms total)
T16A8 1147:995 JLINK_ReadReg(R7)  returns 0x07070707 (0000ms, 1628ms total)
T16A8 1147:995 JLINK_ReadReg(R8)  returns 0x08080808 (0000ms, 1628ms total)
T16A8 1147:995 JLINK_ReadReg(R9)  returns 0x09090909 (0000ms, 1628ms total)
T16A8 1147:995 JLINK_ReadReg(R10)  returns 0x10101010 (0000ms, 1628ms total)
T16A8 1147:995 JLINK_ReadReg(R11)  returns 0x11111111 (0000ms, 1628ms total)
T16A8 1147:995 JLINK_ReadReg(R12)  returns 0x12121212 (0000ms, 1628ms total)
T16A8 1147:995 JLINK_ReadReg(R13 (SP))  returns 0x20001B58 (0000ms, 1628ms total)
T16A8 1147:995 JLINK_ReadReg(R14)  returns 0x08001463 (0001ms, 1629ms total)
T16A8 1147:996 JLINK_ReadReg(R15 (PC))  returns 0x08001464 (0000ms, 1629ms total)
T16A8 1147:996 JLINK_ReadReg(XPSR)  returns 0x0100000F (0000ms, 1629ms total)
T16A8 1147:996 JLINK_ReadReg(MSP)  returns 0x20001B58 (0000ms, 1629ms total)
T16A8 1147:996 JLINK_ReadReg(PSP)  returns 0x20000B04 (0000ms, 1629ms total)
T16A8 1147:996 JLINK_ReadReg(CFBP)  returns 0x00000001 (0000ms, 1629ms total)
T22B4 1147:996 JLINK_ReadMemEx(0x20001B5C, 0x0004 Bytes, ..., Flags = 0x02000000) -- CPU_ReadMem(64 bytes @ 0x20001B40) -- Updating C cache (64 bytes @ 0x20001B40) -- Read from C cache (4 bytes @ 0x20001B5C) - Data: FD FF FF FF  returns 0x04 (0001ms, 1630ms total)
